
**** 10/15/16 12:37:55 ****** PSpice 17.2.0 (March 2016) ****** ID# 0 ********

 ** Profile: "summing_amp-summing_amp_analysis"  [ c:\ninfeion_git\bbsolarcontroller\pcb\cadence\schematic\sim\demo_3\bb_buck-pspicef


 ****     CIRCUIT DESCRIPTION


******************************************************************************




** Creating circuit file "summing_amp_analysis.cir" 
** WARNING: THIS AUTOMATICALLY GENERATED FILE MAY BE OVERWRITTEN BY SUBSEQUENT SIMULATIONS

*Libraries: 
* Profile Libraries :
* Local Libraries :
* From [PSPICE NETLIST] section of C:\Cadence\SPB_Data\cdssetup\OrCAD_PSpice\17.2.0\PSpice.ini file:
.lib "nom.lib" 

*Analysis directives: 
.TRAN  0 1000us 0 1us 
.OPTIONS ADVCONV
.PROBE64 V(alias(*)) I(alias(*)) W(alias(*)) D(alias(*)) NOISE(alias(*)) 
.INC "..\summing_amp.net" 



**** INCLUDING summing_amp.net ****
* source BB_BUCK
X_U3A         N21993 N20921 VCC VEE AD_I+ LM358/ON
M_M3         N20475 N20725 N20425 N20425 IRF150
M_M2         N20475 N20573 N20425 N20425 IRF150
V_V5         N20573 N20425  
+PULSE 0 5 0 0.01us 0.01us {DUTY} 10us
R_R2         N20743 N20499  0.1 TC=0,0 
L_L2         N20425 OUT  5mH  
V_V1         N20475 0 70Vdc
V_V3         0 VEE 0Vdc
V_V4         VCC 0 6Vdc
R_R1         0 N20499  2 TC=0,0 
X_U4B         N22240 N20929 VCC VEE AD_I- LM358/ON
M_M1         N20475 N20593 N20425 N20425 IRF150
C_C1         0 OUT  4700uF  TC=0,0 
V_V2         N20593 N20425  
+PULSE 0 5 0 0.01us 0.01us {DUTY} 10us
V_V6         N20725 N20425  
+PULSE 0 5 0 0.01us 0.01us {DUTY} 10us
D_D1         0 N20425 D1N5818 
V_V7         1V_REF 0 1Vdc
R_R7         N21993 1V_REF  10K TC=0,0 
R_R8         N20743 N21993  100K TC=0,0 
R_R10         N22240 1V_REF  10K TC=0,0 
R_R13         N20921 0  100K TC=0,0 
R_R14         N20929 0  100K TC=0,0 
R_R15         AD_I+ N20921  10K TC=0,0 
R_R16         AD_I- N20929  10K TC=0,0 
R_R17         N20499 N22240  100K TC=0,0 
V_V8         N20743 0  AC 0
+SIN 4 4 100000 0 0 0
.PARAM  duty=1us

**** RESUMING summing_amp_analysis.cir ****
.END

**** 10/15/16 12:37:55 ****** PSpice 17.2.0 (March 2016) ****** ID# 0 ********

 ** Profile: "summing_amp-summing_amp_analysis"  [ c:\ninfeion_git\bbsolarcontroller\pcb\cadence\schematic\sim\demo_3\bb_buck-pspicef


 ****     Diode MODEL PARAMETERS


******************************************************************************




               D1N5818         X_U3A.dx        X_U4B.dx        
          IS    2.835000E-06  800.000000E-18  800.000000E-18 
         ISR   26.460000E-06                                 
         IKF     .3227                                       
          RS     .04712                                      
         CJO  359.300000E-12                                 
          VJ     .75                                         
           M     .6513                                       
         XTI    0                                            


**** 10/15/16 12:37:55 ****** PSpice 17.2.0 (March 2016) ****** ID# 0 ********

 ** Profile: "summing_amp-summing_amp_analysis"  [ c:\ninfeion_git\bbsolarcontroller\pcb\cadence\schematic\sim\demo_3\bb_buck-pspicef


 ****     BJT MODEL PARAMETERS


******************************************************************************




               X_U3A.qx        X_U4B.qx        
               PNP             PNP             
       LEVEL    1               1            
          IS  800.000000E-18  800.000000E-18 
          BF   32.03           32.03         
          NF    1               1            
          BR    1               1            
          NR    1               1            
         ISS    0               0            
          RE    0               0            
          RC    0               0            
         CJE    0               0            
         VJE     .75             .75         
         CJC    0               0            
         VJC     .75             .75         
         MJC     .33             .33         
        XCJC    1               1            
         CJS    0               0            
         VJS     .75             .75         
          KF    0               0            
          AF    1               1            
          CN    2.2             2.2          
           D     .52             .52         


**** 10/15/16 12:37:55 ****** PSpice 17.2.0 (March 2016) ****** ID# 0 ********

 ** Profile: "summing_amp-summing_amp_analysis"  [ c:\ninfeion_git\bbsolarcontroller\pcb\cadence\schematic\sim\demo_3\bb_buck-pspicef


 ****     MOSFET MODEL PARAMETERS


******************************************************************************




               IRF150          
               NMOS            
       LEVEL    3            
           L    2.000000E-06 
           W     .3          
         VTO    2.831        
          KP   20.530000E-06 
       GAMMA    0            
         PHI     .6          
      LAMBDA    0            
          RD    1.031000E-03 
          RS    1.624000E-03 
          RG   13.89         
         RDS  444.400000E+03 
          IS  194.000000E-18 
          JS    0            
          PB     .8          
        PBSW     .8          
         CBD    3.229000E-09 
          CJ    0            
        CJSW    0            
          TT  288.000000E-09 
        CGSO    9.027000E-09 
        CGDO    1.679000E-09 
        CGBO    0            
         TOX  100.000000E-09 
          XJ    0            
       UCRIT   10.000000E+03 
       DELTA    0            
         ETA    0            
      DIOMOD    1            
         VFB    0            
        LETA    0            
        WETA    0            
          U0    0            
        TEMP    0            
         VDD    5            
       XPART    0            


**** 10/15/16 12:37:55 ****** PSpice 17.2.0 (March 2016) ****** ID# 0 ********

 ** Profile: "summing_amp-summing_amp_analysis"  [ c:\ninfeion_git\bbsolarcontroller\pcb\cadence\schematic\sim\demo_3\bb_buck-pspicef


 ****     INITIAL TRANSIENT SOLUTION       TEMPERATURE =   27.000 DEG C


******************************************************************************



 NODE   VOLTAGE     NODE   VOLTAGE     NODE   VOLTAGE     NODE   VOLTAGE


(  OUT)   27.7160  (  VCC)    6.0000  (  VEE)    0.0000  (AD_I+)    1.4000      

(AD_I-)    1.3810  (1V_REF)    1.0000 (N20425)   27.7160 (N20475)   70.0000     

(N20499)    3.8095 (N20573)   27.7160 (N20593)   27.7160 (N20725)   27.7160     

(N20743)    4.0000 (N20921)    1.2731 (N20929)    1.2558 (N21993)    1.2731     

(N22240)    1.2558 (X_U3A.6) 132.8E-06                   (X_U3A.7)    1.4007    

(X_U3A.8)    1.4007                   (X_U3A.9)    0.0000                       

(X_U4B.6) 134.4E-06                   (X_U4B.7)    1.3816                       

(X_U4B.8)    1.3816                   (X_U4B.9)    0.0000                       

(X_U3A.10)    1.8243                  (X_U3A.11)     .0299                      

(X_U3A.12)     .0299                  (X_U3A.13)    1.8204                      

(X_U3A.14)    1.8204                  (X_U3A.53)    4.2000                      

(X_U3A.54)     .8800                  (X_U3A.90)     .0127                      

(X_U3A.91)   40.0000                  (X_U3A.92)  -40.0000                      

(X_U3A.99)    3.0000                  (X_U4B.10)    1.8070                      

(X_U4B.11)     .0299                  (X_U4B.12)     .0299                      

(X_U4B.13)    1.8031                  (X_U4B.14)    1.8031                      

(X_U4B.53)    4.2000                  (X_U4B.54)     .8800                      

(X_U4B.90)     .0125                  (X_U4B.91)   40.0000                      

(X_U4B.92)  -40.0000                  (X_U4B.99)    3.0000                  




    VOLTAGE SOURCE CURRENTS
    NAME         CURRENT

    V_V5         0.000E+00
    V_V1        -2.854E-04
    V_V3        -3.239E-04
    V_V4        -3.241E-04
    V_V2         0.000E+00
    V_V6         0.000E+00
    V_V7         5.288E-05
    V_V8        -1.905E+00
    X_U3A.vb     1.328E-09
    X_U3A.vc     2.801E-12
    X_U3A.ve     5.208E-13
    X_U3A.vlim   1.269E-05
    X_U3A.vlp   -3.999E-11
    X_U3A.vln   -4.001E-11
    X_U4B.vb     1.344E-09
    X_U4B.vc     2.820E-12
    X_U4B.ve     5.018E-13
    X_U4B.vlim   1.252E-05
    X_U4B.vlp   -3.999E-11
    X_U4B.vln   -4.001E-11

    TOTAL POWER DISSIPATION   7.64E+00  WATTS



          JOB CONCLUDED

**** 10/15/16 12:37:55 ****** PSpice 17.2.0 (March 2016) ****** ID# 0 ********

 ** Profile: "summing_amp-summing_amp_analysis"  [ c:\ninfeion_git\bbsolarcontroller\pcb\cadence\schematic\sim\demo_3\bb_buck-pspicef


 ****     JOB STATISTICS SUMMARY


******************************************************************************



  Total job time (using Solver 1)   =         .78
