
**** 09/05/16 18:44:09 ***** PSpice 16.6.0 (October 2012) ***** ID# 0 ********

 ** Profile: "SCHEMATIC1-bias_point_analyze"  [ C:\NINFEION_GIT\BBSOLARCONTROLLER\PCB\CADENCE\SCHEMATIC\SIM\demo_1\bbamp_biaspoint_an


 ****     CIRCUIT DESCRIPTION


******************************************************************************




** Creating circuit file "bias_point_analyze.cir" 
** WARNING: THIS AUTOMATICALLY GENERATED FILE MAY BE OVERWRITTEN BY SUBSEQUENT SIMULATIONS

*Libraries: 
* Profile Libraries :
* Local Libraries :
* From [PSPICE NETLIST] section of C:\Users\N\AppData\Roaming\SPB_Data\cdssetup\OrCAD_PSpice/16.6.0/PSpice.ini file:
.lib "nom.lib" 

*Analysis directives: 
.OP
.OPTIONS ADVCONV
.PROBE64 V(alias(*)) I(alias(*)) W(alias(*)) D(alias(*)) NOISE(alias(*)) 
.INC "..\SCHEMATIC1.net" 



**** INCLUDING SCHEMATIC1.net ****
* source BBAMP_BIASPOINT_ANALYZE
Q_Q1         N00225 N00198 N00176 Q2N2222
C_C1         N00225 OUT  10u   
R_R1         N00225 VCC  5.1k  
R_R2         N00198 VCC  300k  
R_R3         0 N00198  24k  
R_R4         0 N00176  100  
C_C2         0 N00176  50u   
R_R5         0 OUT  5.1k  
C_C3         N00386 N00198  10u   
R_R6         N00386 N00390  100  
V_V1         N00390 0 DC 0 AC 1V sin(0.1mv 10kHz)
V_V2         VCC 0 12Vdc

**** RESUMING bias_point_analyze.cir ****
.END

**** 09/05/16 18:44:09 ***** PSpice 16.6.0 (October 2012) ***** ID# 0 ********

 ** Profile: "SCHEMATIC1-bias_point_analyze"  [ C:\NINFEION_GIT\BBSOLARCONTROLLER\PCB\CADENCE\SCHEMATIC\SIM\demo_1\bbamp_biaspoint_an


 ****     BJT MODEL PARAMETERS


******************************************************************************




               Q2N2222         
               NPN             
       LEVEL    1            
          IS   14.340000E-15 
          BF  255.9          
          NF    1            
         VAF   74.03         
         IKF     .2847       
         ISE   14.340000E-15 
          NE    1.307        
          BR    6.092        
          NR    1            
         ISS    0            
          RB   10            
          RE    0            
          RC    1            
         CJE   22.010000E-12 
         VJE     .75         
         MJE     .377        
         CJC    7.306000E-12 
         VJC     .75         
         MJC     .3416       
        XCJC    1            
         CJS    0            
         VJS     .75         
          TF  411.100000E-12 
         XTF    3            
         VTF    1.7          
         ITF     .6          
          TR   46.910000E-09 
         XTB    1.5          
          KF    0            
          AF    1            
          CN    2.42         
           D     .87         


**** 09/05/16 18:44:09 ***** PSpice 16.6.0 (October 2012) ***** ID# 0 ********

 ** Profile: "SCHEMATIC1-bias_point_analyze"  [ C:\NINFEION_GIT\BBSOLARCONTROLLER\PCB\CADENCE\SCHEMATIC\SIM\demo_1\bbamp_biaspoint_an


 ****     SMALL SIGNAL BIAS SOLUTION       TEMPERATURE =   27.000 DEG C


******************************************************************************



 NODE   VOLTAGE     NODE   VOLTAGE     NODE   VOLTAGE     NODE   VOLTAGE


(  OUT)    0.0000  (  VCC)   12.0000  (N00176)     .1024 (N00198)     .7467     

(N00225)    6.8127 (N00386)    0.0000 (N00390)    0.0000 




    VOLTAGE SOURCE CURRENTS
    NAME         CURRENT

    V_V1         0.000E+00
    V_V2        -1.055E-03

    TOTAL POWER DISSIPATION   1.27E-02  WATTS


**** 09/05/16 18:44:09 ***** PSpice 16.6.0 (October 2012) ***** ID# 0 ********

 ** Profile: "SCHEMATIC1-bias_point_analyze"  [ C:\NINFEION_GIT\BBSOLARCONTROLLER\PCB\CADENCE\SCHEMATIC\SIM\demo_1\bbamp_biaspoint_an


 ****     OPERATING POINT INFORMATION      TEMPERATURE =   27.000 DEG C


******************************************************************************






**** BIPOLAR JUNCTION TRANSISTORS


NAME         Q_Q1      
MODEL        Q2N2222   
IB           6.40E-06 
IC           1.02E-03 
VBE          6.44E-01 
VBC         -6.07E+00 
VCE          6.71E+00 
BETADC       1.59E+02 
GM           3.92E-02 
RPI          4.49E+03 
RX           1.00E+01 
RO           7.87E+04 
CBE          5.24E-11 
CBC          3.44E-12 
CJS          0.00E+00 
BETAAC       1.76E+02 
CBX/CBX2     0.00E+00 
FT/FT2       1.12E+08 



          JOB CONCLUDED

**** 09/05/16 18:44:09 ***** PSpice 16.6.0 (October 2012) ***** ID# 0 ********

 ** Profile: "SCHEMATIC1-bias_point_analyze"  [ C:\NINFEION_GIT\BBSOLARCONTROLLER\PCB\CADENCE\SCHEMATIC\SIM\demo_1\bbamp_biaspoint_an


 ****     JOB STATISTICS SUMMARY


******************************************************************************



  Total job time (using Solver 1)   =         .03
