
**** 09/24/16 23:35:16 ***** PSpice 16.6.0 (October 2012) ***** ID# 0 ********

 ** Profile: "THREE_PHASE_DCDC-three-phase-analysis"  [ c:\ninfeion_git\bbsolarcontroller\pcb\cadence\schematic\sim\bbcircuit_simulat


 ****     CIRCUIT DESCRIPTION


******************************************************************************




** Creating circuit file "three-phase-analysis.cir" 
** WARNING: THIS AUTOMATICALLY GENERATED FILE MAY BE OVERWRITTEN BY SUBSEQUENT SIMULATIONS

*Libraries: 
* Profile Libraries :
* Local Libraries :
* From [PSPICE NETLIST] section of C:\Users\N\AppData\Roaming\SPB_Data\cdssetup\OrCAD_PSpice/16.6.0/PSpice.ini file:
.lib "nom.lib" 

*Analysis directives: 
.TRAN  0 50ms 0 1ms 
.OPTIONS ADVCONV
.PROBE64 V(alias(*)) I(alias(*)) W(alias(*)) D(alias(*)) NOISE(alias(*)) 
.INC "..\THREE_PHASE_DCDC.net" 



**** INCLUDING THREE_PHASE_DCDC.net ****
* source BBCIRCUIT_SIMULATION
C_C5         0 N303632  470u  TC=0,0 
V_V18         N3039821 0  
+PULSE 5 0 {PHASE2} 0.01us 0.01us {DUTY1+0.02us} {PERIOD}
C_C6         N303632 N303760  470u  TC=0,0 
D_D2         0 N304090 D1N5818 
L_L6         N305072 N304090  4.7u  
C_C3         N303542 N303760  470u  TC=0,0 
V_V16         N3058701 0  
+PULSE 5 0 {PHASE2} 0.01us 0.01us {DUTY1+0.02us} {PERIOD}
L_L10         N304082 N303632  4.7u  
C_C2         0 N303542  470u  TC=0,0 
V_V9         N305072 0 {BATTERY}
V_V17         N3037821 N303756  
+PULSE 0 5 {PHASE2+0.01us} 0.01us 0.01us {DUTY1} {PERIOD}
L_L9         N303756 N303542  4.7u  
C_C18         N304822 N304176  100u  TC=0,0 
M_M8         N303756 N3039821 0 0 IRF150
V_V15         N3055181 N304082  
+PULSE 0 5 {PHASE2+0.01us} 0.01us 0.01us {DUTY1} {PERIOD}
M_M6         N304082 N3058701 0 0 IRF150
D_D7         0 N304082 D1N5818 
D_D6         N304082 N303760 D1N5818 
V_V8         N3054121 0  
+PULSE 5 0 {PHASE2} 0.01us 0.01us {DUTY1+0.02us} {PERIOD}
M_M2         N304090 N3054121 0 0 IRF150
V_V13         N3041941 N304120  
+PULSE 0 5 {PHASE4+0.01us} 0.01us 0.01us {DUTY1} {PERIOD}
V_V14         N3043301 0  
+PULSE 5 0 {PHASE4} 0.01us 0.01us {DUTY1+0.02us} {PERIOD}
C_C16         0 N304176  100u  TC=0,0 
M_M7         N303760 N3037821 N303756 N303756 IRF150
D_D1         N304090 N303760 D1N5818 
L_L3         N304120 N312527  470u  
R_R10         0 N304176  50 TC=0,0 
C_C17         0 N304822  100u  TC=0,0 
L_L1         N305072 N304082  4.7u  
D_D3         N304784 N303760 D1N5818 
V_V7         N3053521 N304090  
+PULSE 0 5 {PHASE2+0.01us} 0.01us 0.01us {DUTY1} {PERIOD}
D_D5         0 N304120 D1N5818 
M_M5         N303760 N3055181 N304082 N304082 IRF150
L_L5         N305072 N303756  4.7u  
D_D8         N303756 N303760 D1N5818 
M_M4         N304120 N3043301 0 0 IRF150
C_C4         0 N305072  470u  TC=0,0 
L_L2         N304090 N303666  4.7u  
M_M3         N304176 N3041941 N304120 N304120 IRF150
V_V10         N304788 0 {SOLAR}
C_C9         N303666 N303760  470u  TC=0,0 
M_M1         N303760 N3053521 N304090 N304090 IRF150
D_D4         N304120 N304176 D1N5818 
C_C8         0 N303666  470u  TC=0,0 
D_D9         0 N303756 D1N5818 
R_R7         N304788 N304784  5 TC=0,0 
V_V19         N3078341 N307816  
+PULSE 0 5 {PHASE4+0.01us} 0.01us 0.01us {DUTY1} {PERIOD}
M_M9         N304176 N3078341 N307816 N307816 IRF150
M_M10         N307816 N3084671 0 0 IRF150
V_V20         N3084671 0  
+PULSE 5 0 {PHASE4} 0.01us 0.01us {DUTY1+0.02us} {PERIOD}
Kn_K1         L_L9 L_L3     1
C_C28         0 N312542  100u  TC=0,0 
C_C29         N312542 N304176  100u  TC=0,0 
C_C31         N312527 N304176  100u  TC=0,0 
C_C30         0 N312527  100u  TC=0,0 
L_L11         N307816 N312542  470u  
L_L12         N314239 N304822  470u  
M_M11         N304176 N3142531 N314239 N314239 IRF150
V_V21         N3142531 N314239  
+PULSE 0 5 {PHASE4+0.01us} 0.01us 0.01us {DUTY1} {PERIOD}
V_V22         N3145311 0  
+PULSE 5 0 {PHASE4} 0.01us 0.01us {DUTY1+0.02us} {PERIOD}
M_M12         N314239 N3145311 0 0 IRF150
D_D10         0 N307816 D1N5818 
D_D11         0 N314239 D1N5818 
D_D12         N307816 N304176 D1N5818 
D_D13         N314239 N304176 D1N5818 
Kn_K2         L_L10 L_L11     1
Kn_K3         L_L2 L_L12     1
.PARAM  phase_diff=1us period=1us dead_area=0.1us phase1=0.1us l1=1m phase2=0
+  solar=24 duty1=0.7us phase3=1.1us phase4=0.04us duty2=5.2us battery=12
+  duty3=4us duty4=4.2us

**** RESUMING three-phase-analysis.cir ****
.END

**** 09/24/16 23:35:16 ***** PSpice 16.6.0 (October 2012) ***** ID# 0 ********

 ** Profile: "THREE_PHASE_DCDC-three-phase-analysis"  [ c:\ninfeion_git\bbsolarcontroller\pcb\cadence\schematic\sim\bbcircuit_simulat


 ****     Diode MODEL PARAMETERS


******************************************************************************




               D1N5818         
          IS    2.835000E-06 
         ISR   26.460000E-06 
         IKF     .3227       
          RS     .04712      
         CJO  359.300000E-12 
          VJ     .75         
           M     .6513       
         XTI    0            


**** 09/24/16 23:35:16 ***** PSpice 16.6.0 (October 2012) ***** ID# 0 ********

 ** Profile: "THREE_PHASE_DCDC-three-phase-analysis"  [ c:\ninfeion_git\bbsolarcontroller\pcb\cadence\schematic\sim\bbcircuit_simulat


 ****     MOSFET MODEL PARAMETERS


******************************************************************************




               IRF150          
               NMOS            
       LEVEL    3            
           L    2.000000E-06 
           W     .3          
         VTO    2.831        
          KP   20.530000E-06 
       GAMMA    0            
         PHI     .6          
      LAMBDA    0            
          RD    1.031000E-03 
          RS    1.624000E-03 
          RG   13.89         
         RDS  444.400000E+03 
          IS  194.000000E-18 
          JS    0            
          PB     .8          
        PBSW     .8          
         CBD    3.229000E-09 
          CJ    0            
        CJSW    0            
          TT  288.000000E-09 
        CGSO    9.027000E-09 
        CGDO    1.679000E-09 
        CGBO    0            
         TOX  100.000000E-09 
          XJ    0            
       UCRIT   10.000000E+03 
       DELTA    0            
         ETA    0            
      DIOMOD    1            
         VFB    0            
        LETA    0            
        WETA    0            
          U0    0            
        TEMP    0            
         VDD    5            
       XPART    0            


**** 09/24/16 23:35:16 ***** PSpice 16.6.0 (October 2012) ***** ID# 0 ********

 ** Profile: "THREE_PHASE_DCDC-three-phase-analysis"  [ c:\ninfeion_git\bbsolarcontroller\pcb\cadence\schematic\sim\bbcircuit_simulat


 ****     INITIAL TRANSIENT SOLUTION       TEMPERATURE =   27.000 DEG C


******************************************************************************



 NODE   VOLTAGE     NODE   VOLTAGE     NODE   VOLTAGE     NODE   VOLTAGE


(N303542)   12.0000                   (N303632)   12.0000                       

(N303666)   12.0000                   (N303756)   12.0000                       

(N303760)   23.8720                   (N304082)   12.0000                       

(N304090)   12.0000                   (N304120) 373.0E-24                       

(N304176)-298.6E-21                   (N304784)   23.9970                       

(N304788)   24.0000                   (N304822) 373.0E-24                       

(N305072)   12.0000                   (N307816) 373.0E-24                       

(N312527) 373.0E-24                   (N312542) 373.0E-24                       

(N314239) 373.0E-24                   (N3037821)   12.0000                      

(N3039821)    5.0000                  (N3041941) 373.0E-24                      

(N3043301)    5.0000                  (N3053521)   12.0000                      

(N3054121)    5.0000                  (N3055181)   12.0000                      

(N3058701)    5.0000                  (N3078341) 373.0E-24                      

(N3084671)    5.0000                  (N3142531) 373.0E-24                      

(N3145311)    5.0000                  




    VOLTAGE SOURCE CURRENTS
    NAME         CURRENT

    V_V18        0.000E+00
    V_V16        0.000E+00
    V_V9        -2.150E+01
    V_V17       -3.916E-16
    V_V15       -3.347E-16
    V_V8         0.000E+00
    V_V13        0.000E+00
    V_V14        0.000E+00
    V_V7        -6.641E-16
    V_V10       -5.878E-04
    V_V19        0.000E+00
    V_V20        0.000E+00
    V_V21        0.000E+00
    V_V22        0.000E+00

    TOTAL POWER DISSIPATION   2.58E+02  WATTS


          JOB ABORTED

**** 09/24/16 23:35:16 ***** PSpice 16.6.0 (October 2012) ***** ID# 0 ********

 ** Profile: "THREE_PHASE_DCDC-three-phase-analysis"  [ c:\ninfeion_git\bbsolarcontroller\pcb\cadence\schematic\sim\bbcircuit_simulat


 ****     JOB STATISTICS SUMMARY


******************************************************************************



  Total job time (using Solver 1)   =      495.23
