
**** 10/17/16 11:57:13 ****** PSpice 17.2.0 (March 2016) ****** ID# 0 ********

 ** Profile: "Advanced_Current_AD-advanced_current_sample"  [ c:\ninfeion_git\bbsolarcontroller\pcb\cadence\schematic\sim\bbcircuit_s


 ****     CIRCUIT DESCRIPTION


******************************************************************************




** Creating circuit file "advanced_current_sample.cir" 
** WARNING: THIS AUTOMATICALLY GENERATED FILE MAY BE OVERWRITTEN BY SUBSEQUENT SIMULATIONS

*Libraries: 
* Profile Libraries :
* Local Libraries :
.LIB "../../../bbcircuit_simulation-pspicefiles/bbcircuit_simulation.lib" 
* From [PSPICE NETLIST] section of C:\Cadence\SPB_Data\cdssetup\OrCAD_PSpice\17.2.0\PSpice.ini file:
.lib "C:\Ninfeion_Git\BBSolarController\AD8210_PSPICE_LIB\AD8210.lib" 
.lib "nom.lib" 

*Analysis directives: 
.TRAN  0 1000ms 0 
.STEP LIN PARAM BAT -10 10 2 
.OPTIONS ADVCONV
.PROBE64 V(alias(*)) I(alias(*)) W(alias(*)) D(alias(*)) NOISE(alias(*)) 
.INC "..\Advanced_Current_AD.net" 



**** INCLUDING Advanced_Current_AD.net ****
* source BBCIRCUIT_SIMULATION
R_R1         N00240 N00244  0.01 TC=0,0 
Q_Q1         N00219 N00334 N00244 Q2SA1213/ZTX 
Q_Q3         N00231 N09140 N00334 Q2SA1213/ZTX 
Q_Q4         N00219 N00523 N00397 Q2N1893
Q_Q5         N09140 N00231 N00393 Q2N1893
Q_Q6         N00231 N00231 N00389 Q2N1893
Q_Q8         N00523 N00513 0 Q2N1893
R_R2         N00523 N00240  100k TC=0,0 
R_R4         0 N00389  20k TC=0,0 
R_R5         0 N00393  18k TC=0,0 
R_R6         0 N00397  4.7k TC=0,0 
R_R7         0 N00513  4.7k TC=0,0 
R_load         0 N00244  {LOAD} TC=0,0 
R_R8         0 N00389  1900k TC=0,0 
Q_Q7         N00284 N00523 N00513 Q2N1893
Q_Q2         N00284 N00318 N00240 Q2SA1213/ZTX 
R_R9         N00334 N00318  2k TC=0,0 
V_V4         N09140 N00219 0Vdc
V_V7         N00240 0 {BAT}
R_R10         N11648 N11674  0.01 TC=0,0 
R_load1         0 N11674  {LOAD} TC=0,0 
V_V9         N00284 N00318 0Vdc
R_R13         N15592 N11648  100k TC=0,0 
R_R14         N15615 N11648  100k TC=0,0 
R_R19         0 N15673  470 TC=0,0 
R_R20         0 N15892  470 TC=0,0 
Q_Q14         N16810 N16810 N16698 Q2SA1213/ZTX 
R_R23         VEE_AMP N16806  470k TC=0,0 
R_R24         VEE_AMP N16810  470k TC=0,0 
Q_Q13         N16806 N16806 N16698 Q2SA1213/ZTX 
R_R25         0 N16810  1000k TC=0,0 
Q_Q15         N31628 N15592 N15673 Q2N1893
Q_Q16         N31643 N15615 N15673 Q2N1893
Q_Q17         N15615 N31643 N15892 Q2N1893
Q_Q18         N15592 N31628 N15673 Q2N1893
V_V10         VCC_AMP 0 5Vdc
V_V11         0 VEE_AMP 0Vdc
R_R29         VCC_AMP N16698  47k TC=0,0 
R_R33         N15673 0  25k TC=0,0 
I_I1         0 N11648 DC 0Adc AC 0Aac
+SIN 0 0 50 0 0 0
Q_Q21         N31643 N33651 N36381 Q2SA1213/ZTX 
Q_Q22         N31628 N33651 N36457 Q2SA1213/ZTX 
Q_Q23         N33651 N33651 VCC_AMP Q2SA1213/ZTX 
R_R35         N33651 0  19k TC=0,0 
R_R37         VCC_AMP N36381  4.7k TC=0,0 
R_R40         VCC_AMP N36457  4.7k TC=0,0 
X_U1A         N39284 N39254 VCC_AMP VEE_AMP N39551 LM358
R_R41         N39284 N15673  470 TC=0,0 
R_R42         N39254 N15892  470 TC=0,0 
R_R43         N39551 N39254  47000 TC=0,0 
R_R44         0 N39284  47000 TC=0,0 
R_R45         N00240 N00244  0.01 TC=0,0 
.PARAM  load=2 bat=24

**** RESUMING advanced_current_sample.cir ****
.END

**** 10/17/16 11:57:13 ****** PSpice 17.2.0 (March 2016) ****** ID# 0 ********

 ** Profile: "Advanced_Current_AD-advanced_current_sample"  [ c:\ninfeion_git\bbsolarcontroller\pcb\cadence\schematic\sim\bbcircuit_s


 ****     Diode MODEL PARAMETERS


******************************************************************************




               X_U1A.x_lm358.dx 
          IS  800.000000E-18 
          RS    1            


               X_U1A.x_lm358.dy 
          IS  800.000000E-18 
          RS    1.000000E-03 
         CJO   10.000000E-12 


**** 10/17/16 11:57:13 ****** PSpice 17.2.0 (March 2016) ****** ID# 0 ********

 ** Profile: "Advanced_Current_AD-advanced_current_sample"  [ c:\ninfeion_git\bbsolarcontroller\pcb\cadence\schematic\sim\bbcircuit_s


 ****     BJT MODEL PARAMETERS


******************************************************************************




               Q2SA1213/ZTX    Q2N1893         
               PNP             NPN             
       LEVEL    1               1            
          IS  260.000000E-15    2.079000E-15 
          BF  210             167.2          
          NF     .999           1            
         VAF   27             100            
         IKF    7               1.088        
         ISE  120.000000E-15   24.360000E-15 
          NE    1.43            1.357        
          BR   70               1.502        
          NR     .982           1            
         VAR   14                            
         IKR     .6              .3028       
         ISC    1.204000E-12  264.600000E-15 
          NC    1.4474          1.545        
          NK                     .8271       
         ISS    0               0            
          RB     .3                          
          RE     .065           0            
          RC     .04             .9069       
         CJE  410.000000E-12   58.120000E-12 
         VJE     .75             .5          
         MJE                     .441        
         CJC  140.000000E-12   45.290000E-12 
         VJC     .305            .5          
         MJC     .35             .31         
        XCJC    1               1            
         CJS    0               0            
         VJS     .75             .75         
          TF  650.000000E-12  738.100000E-12 
         XTF                   24.93         
         VTF                   10            
         ITF                    2.376        
          TR   12.000000E-09    1.000000E-06 
         XTB                    1.5          
          KF    0               0            
          AF    1               1            
          CN    2.2             2.42         
           D     .52             .87         


               X_U1A.x_lm358.qx 
               PNP             
       LEVEL    1            
          IS  800.000000E-18 
          BF  166.7          
          NF    1            
          BR    1            
          NR    1            
         ISS    0            
          RE    0            
          RC    0            
         CJE    0            
         VJE     .75         
         CJC    0            
         VJC     .75         
         MJC     .33         
        XCJC    1            
         CJS    0            
         VJS     .75         
          KF    0            
          AF    1            
          CN    2.2          
           D     .52         


**** 10/17/16 11:57:13 ****** PSpice 17.2.0 (March 2016) ****** ID# 0 ********

 ** Profile: "Advanced_Current_AD-advanced_current_sample"  [ c:\ninfeion_git\bbsolarcontroller\pcb\cadence\schematic\sim\bbcircuit_s


 ****     Current Controlled Switch MODEL PARAMETERS


******************************************************************************




               X_U1A.x_lm358.sw2 
         RON    1            
        ROFF   10.000000E+06 
         ION    0            
        IOFF   -1.000000E-06 


               X_U1A.x_lm358.sw1 
         RON    1            
        ROFF   10.000000E+06 
         ION   -1.000000E-06 
        IOFF    0            


               X_U1A.x_lm358.sw3 
         RON    1            
        ROFF   10.000000E+06 
         ION   -1.000000E-06 
        IOFF    0            


               X_U1A.x_lm358.sw4 
         RON    1            
        ROFF   10.000000E+06 
         ION    0            
        IOFF   -1.000000E-06 


**** 10/17/16 11:57:13 ****** PSpice 17.2.0 (March 2016) ****** ID# 0 ********

 ** Profile: "Advanced_Current_AD-advanced_current_sample"  [ c:\ninfeion_git\bbsolarcontroller\pcb\cadence\schematic\sim\bbcircuit_s


 ****     INITIAL TRANSIENT SOLUTION       TEMPERATURE =   27.000 DEG C

 ****     CURRENT STEP                     PARAM BAT =  -10    


******************************************************************************



 NODE   VOLTAGE     NODE   VOLTAGE     NODE   VOLTAGE     NODE   VOLTAGE


(N00219)    -.9501 (N00231)    -.9351 (N00240)  -10.0000 (N00244)   -9.9751     

(N00284)    -.9544 (N00318)    -.9544 (N00334)    -.9544 (N00389)-19.14E-09     

(N00393)-17.70E-09 (N00397)-8.049E-09 (N00513)    -.1777 (N00523)    -.7982     

(N09140)    -.9501 (N11648) 849.6E-09 (N11674) 845.4E-09 (N15592)     .0207     

(N15615)     .0215 (N15673)     .0070 (N15892)     .0078 (N16698)    4.0990     

(N16806)    3.6536 (N16810)    3.6437 (N31628)     .6161 (N31643)     .6169     

(N33651)    4.4663 (N36381)    4.9263 (N36457)    4.9263 (N39254)     .0085     

(N39284)     .0070 (N39551)     .0693 (VCC_AMP)    5.0000                       

(VEE_AMP)    0.0000                   (X_U1A.x_lm358.6)     .0169               

(X_U1A.x_lm358.7)    -.1046           (X_U1A.x_lm358.8)    -.1046               

(X_U1A.x_lm358.9)    0.0000           (X_U1A.x_lm358.a)     .0035               

(X_U1A.x_lm358.b)     .0035           (X_U1A.x_lm358.10)     .6159              

(X_U1A.x_lm358.11)     .0394          (X_U1A.x_lm358.12)     .0409              

(X_U1A.x_lm358.13)     .6021          (X_U1A.x_lm358.14)     .6016              

(X_U1A.x_lm358.53)    3.5000          (X_U1A.x_lm358.54)     .8220              

(X_U1A.x_lm358.90)   -3.4786          (X_U1A.x_lm358.91)   40.0000              

(X_U1A.x_lm358.92)  -40.0000          (X_U1A.x_lm358.99)    2.5000          




    VOLTAGE SOURCE CURRENTS
    NAME         CURRENT

    V_V4         1.663E-12
    V_V7         4.988E+00
    V_V9        -9.770E-14
    V_V10       -8.515E-04
    V_V11       -5.799E-04
    X_U1A.x_lm358.vb   1.691E-07
    X_U1A.x_lm358.vc   3.431E-12
    X_U1A.x_lm358.ve  -3.480E-03
    X_U1A.x_lm358.vlim  -3.479E-03
    X_U1A.x_lm358.vlp  -4.348E-11
    X_U1A.x_lm358.vln  -3.653E-11

    TOTAL POWER DISSIPATION   4.99E+01  WATTS


**** 10/17/16 11:57:13 ****** PSpice 17.2.0 (March 2016) ****** ID# 0 ********

 ** Profile: "Advanced_Current_AD-advanced_current_sample"  [ c:\ninfeion_git\bbsolarcontroller\pcb\cadence\schematic\sim\bbcircuit_s


 ****     INITIAL TRANSIENT SOLUTION       TEMPERATURE =   27.000 DEG C

 ****     CURRENT STEP                     PARAM BAT =   -8     


******************************************************************************



 NODE   VOLTAGE     NODE   VOLTAGE     NODE   VOLTAGE     NODE   VOLTAGE


(N00219)    -.8924 (N00231)    -.8782 (N00240)   -8.0000 (N00244)   -7.9801     

(N00284)    -.8976 (N00318)    -.8976 (N00334)    -.8976 (N00389)-18.01E-09     

(N00393)-16.66E-09 (N00397)-6.340E-09 (N00513)    -.1402 (N00523)    -.7545     

(N09140)    -.8924 (N11648) 849.6E-09 (N11674) 845.4E-09 (N15592)     .0207     

(N15615)     .0215 (N15673)     .0070 (N15892)     .0078 (N16698)    4.0990     

(N16806)    3.6536 (N16810)    3.6437 (N31628)     .6161 (N31643)     .6169     

(N33651)    4.4663 (N36381)    4.9263 (N36457)    4.9263 (N39254)     .0085     

(N39284)     .0070 (N39551)     .0693 (VCC_AMP)    5.0000                       

(VEE_AMP)    0.0000                   (X_U1A.x_lm358.6)     .0169               

(X_U1A.x_lm358.7)    -.1046           (X_U1A.x_lm358.8)    -.1046               

(X_U1A.x_lm358.9)    0.0000           (X_U1A.x_lm358.a)     .0035               

(X_U1A.x_lm358.b)     .0035           (X_U1A.x_lm358.10)     .6159              

(X_U1A.x_lm358.11)     .0394          (X_U1A.x_lm358.12)     .0409              

(X_U1A.x_lm358.13)     .6021          (X_U1A.x_lm358.14)     .6016              

(X_U1A.x_lm358.53)    3.5000          (X_U1A.x_lm358.54)     .8220              

(X_U1A.x_lm358.90)   -3.4786          (X_U1A.x_lm358.91)   40.0000              

(X_U1A.x_lm358.92)  -40.0000          (X_U1A.x_lm358.99)    2.5000          




    VOLTAGE SOURCE CURRENTS
    NAME         CURRENT

    V_V4         1.563E-12
    V_V7         3.990E+00
    V_V9        -1.426E-13
    V_V10       -8.515E-04
    V_V11       -5.799E-04
    X_U1A.x_lm358.vb   1.691E-07
    X_U1A.x_lm358.vc   3.431E-12
    X_U1A.x_lm358.ve  -3.480E-03
    X_U1A.x_lm358.vlim  -3.479E-03
    X_U1A.x_lm358.vlp  -4.348E-11
    X_U1A.x_lm358.vln  -3.653E-11

    TOTAL POWER DISSIPATION   3.19E+01  WATTS


**** 10/17/16 11:57:13 ****** PSpice 17.2.0 (March 2016) ****** ID# 0 ********

 ** Profile: "Advanced_Current_AD-advanced_current_sample"  [ c:\ninfeion_git\bbsolarcontroller\pcb\cadence\schematic\sim\bbcircuit_s


 ****     INITIAL TRANSIENT SOLUTION       TEMPERATURE =   27.000 DEG C

 ****     CURRENT STEP                     PARAM BAT =   -6     


******************************************************************************



 NODE   VOLTAGE     NODE   VOLTAGE     NODE   VOLTAGE     NODE   VOLTAGE


(N00219)    -.8286 (N00231)    -.8154 (N00240)   -6.0000 (N00244)   -5.9850     

(N00284)    -.8350 (N00318)    -.8350 (N00334)    -.8350 (N00389)-16.76E-09     

(N00393)-15.50E-09 (N00397)-5.026E-09 (N00513)    -.1026 (N00523)    -.7088     

(N09140)    -.8286 (N11648) 849.6E-09 (N11674) 845.4E-09 (N15592)     .0207     

(N15615)     .0215 (N15673)     .0070 (N15892)     .0078 (N16698)    4.0990     

(N16806)    3.6536 (N16810)    3.6437 (N31628)     .6161 (N31643)     .6169     

(N33651)    4.4663 (N36381)    4.9263 (N36457)    4.9263 (N39254)     .0085     

(N39284)     .0070 (N39551)     .0693 (VCC_AMP)    5.0000                       

(VEE_AMP)    0.0000                   (X_U1A.x_lm358.6)     .0169               

(X_U1A.x_lm358.7)    -.1046           (X_U1A.x_lm358.8)    -.1046               

(X_U1A.x_lm358.9)    0.0000           (X_U1A.x_lm358.a)     .0035               

(X_U1A.x_lm358.b)     .0035           (X_U1A.x_lm358.10)     .6159              

(X_U1A.x_lm358.11)     .0394          (X_U1A.x_lm358.12)     .0409              

(X_U1A.x_lm358.13)     .6021          (X_U1A.x_lm358.14)     .6016              

(X_U1A.x_lm358.53)    3.5000          (X_U1A.x_lm358.54)     .8220              

(X_U1A.x_lm358.90)   -3.4786          (X_U1A.x_lm358.91)   40.0000              

(X_U1A.x_lm358.92)  -40.0000          (X_U1A.x_lm358.99)    2.5000          




    VOLTAGE SOURCE CURRENTS
    NAME         CURRENT

    V_V4         1.435E-12
    V_V7         2.993E+00
    V_V9        -2.049E-13
    V_V10       -8.515E-04
    V_V11       -5.799E-04
    X_U1A.x_lm358.vb   1.691E-07
    X_U1A.x_lm358.vc   3.431E-12
    X_U1A.x_lm358.ve  -3.480E-03
    X_U1A.x_lm358.vlim  -3.479E-03
    X_U1A.x_lm358.vlp  -4.348E-11
    X_U1A.x_lm358.vln  -3.653E-11

    TOTAL POWER DISSIPATION   1.80E+01  WATTS


**** 10/17/16 11:57:13 ****** PSpice 17.2.0 (March 2016) ****** ID# 0 ********

 ** Profile: "Advanced_Current_AD-advanced_current_sample"  [ c:\ninfeion_git\bbsolarcontroller\pcb\cadence\schematic\sim\bbcircuit_s


 ****     INITIAL TRANSIENT SOLUTION       TEMPERATURE =   27.000 DEG C

 ****     CURRENT STEP                     PARAM BAT =   -4     


******************************************************************************



 NODE   VOLTAGE     NODE   VOLTAGE     NODE   VOLTAGE     NODE   VOLTAGE


(N00219)    -.7528 (N00231)    -.7408 (N00240)   -4.0000 (N00244)   -3.9900     

(N00284)    -.7608 (N00318)    -.7608 (N00334)    -.7608 (N00389)-15.27E-09     

(N00393)-14.13E-09 (N00397)-4.030E-09 (N00513)    -.0651 (N00523)    -.6593     

(N09140)    -.7528 (N11648) 849.6E-09 (N11674) 845.4E-09 (N15592)     .0207     

(N15615)     .0215 (N15673)     .0070 (N15892)     .0078 (N16698)    4.0990     

(N16806)    3.6536 (N16810)    3.6437 (N31628)     .6161 (N31643)     .6169     

(N33651)    4.4663 (N36381)    4.9263 (N36457)    4.9263 (N39254)     .0085     

(N39284)     .0070 (N39551)     .0693 (VCC_AMP)    5.0000                       

(VEE_AMP)    0.0000                   (X_U1A.x_lm358.6)     .0169               

(X_U1A.x_lm358.7)    -.1046           (X_U1A.x_lm358.8)    -.1046               

(X_U1A.x_lm358.9)    0.0000           (X_U1A.x_lm358.a)     .0035               

(X_U1A.x_lm358.b)     .0035           (X_U1A.x_lm358.10)     .6159              

(X_U1A.x_lm358.11)     .0394          (X_U1A.x_lm358.12)     .0409              

(X_U1A.x_lm358.13)     .6021          (X_U1A.x_lm358.14)     .6016              

(X_U1A.x_lm358.53)    3.5000          (X_U1A.x_lm358.54)     .8220              

(X_U1A.x_lm358.90)   -3.4786          (X_U1A.x_lm358.91)   40.0000              

(X_U1A.x_lm358.92)  -40.0000          (X_U1A.x_lm358.99)    2.5000          




    VOLTAGE SOURCE CURRENTS
    NAME         CURRENT

    V_V4         1.286E-12
    V_V7         1.995E+00
    V_V9        -2.777E-13
    V_V10       -8.515E-04
    V_V11       -5.799E-04
    X_U1A.x_lm358.vb   1.691E-07
    X_U1A.x_lm358.vc   3.431E-12
    X_U1A.x_lm358.ve  -3.480E-03
    X_U1A.x_lm358.vlim  -3.479E-03
    X_U1A.x_lm358.vlp  -4.348E-11
    X_U1A.x_lm358.vln  -3.653E-11

    TOTAL POWER DISSIPATION   7.99E+00  WATTS


**** 10/17/16 11:57:13 ****** PSpice 17.2.0 (March 2016) ****** ID# 0 ********

 ** Profile: "Advanced_Current_AD-advanced_current_sample"  [ c:\ninfeion_git\bbsolarcontroller\pcb\cadence\schematic\sim\bbcircuit_s


 ****     INITIAL TRANSIENT SOLUTION       TEMPERATURE =   27.000 DEG C

 ****     CURRENT STEP                     PARAM BAT =   -2     


******************************************************************************



 NODE   VOLTAGE     NODE   VOLTAGE     NODE   VOLTAGE     NODE   VOLTAGE


(N00219)    -.6417 (N00231)    -.6315 (N00240)   -2.0000 (N00244)   -1.9950     

(N00284)    -.6515 (N00318)    -.6515 (N00334)    -.6515 (N00389)-13.10E-09     

(N00393)-12.11E-09 (N00397)-3.197E-09 (N00513)    -.0276 (N00523)    -.5991     

(N09140)    -.6417 (N11648) 849.6E-09 (N11674) 845.4E-09 (N15592)     .0207     

(N15615)     .0215 (N15673)     .0070 (N15892)     .0078 (N16698)    4.0990     

(N16806)    3.6536 (N16810)    3.6437 (N31628)     .6161 (N31643)     .6169     

(N33651)    4.4663 (N36381)    4.9263 (N36457)    4.9263 (N39254)     .0085     

(N39284)     .0070 (N39551)     .0693 (VCC_AMP)    5.0000                       

(VEE_AMP)    0.0000                   (X_U1A.x_lm358.6)     .0169               

(X_U1A.x_lm358.7)    -.1046           (X_U1A.x_lm358.8)    -.1046               

(X_U1A.x_lm358.9)    0.0000           (X_U1A.x_lm358.a)     .0035               

(X_U1A.x_lm358.b)     .0035           (X_U1A.x_lm358.10)     .6159              

(X_U1A.x_lm358.11)     .0394          (X_U1A.x_lm358.12)     .0409              

(X_U1A.x_lm358.13)     .6021          (X_U1A.x_lm358.14)     .6016              

(X_U1A.x_lm358.53)    3.5000          (X_U1A.x_lm358.54)     .8220              

(X_U1A.x_lm358.90)   -3.4786          (X_U1A.x_lm358.91)   40.0000              

(X_U1A.x_lm358.92)  -40.0000          (X_U1A.x_lm358.99)    2.5000          




    VOLTAGE SOURCE CURRENTS
    NAME         CURRENT

    V_V4         1.076E-12
    V_V7         9.975E-01
    V_V9        -3.644E-13
    V_V10       -8.515E-04
    V_V11       -5.799E-04
    X_U1A.x_lm358.vb   1.691E-07
    X_U1A.x_lm358.vc   3.431E-12
    X_U1A.x_lm358.ve  -3.480E-03
    X_U1A.x_lm358.vlim  -3.479E-03
    X_U1A.x_lm358.vlp  -4.348E-11
    X_U1A.x_lm358.vln  -3.653E-11

    TOTAL POWER DISSIPATION   2.00E+00  WATTS


**** 10/17/16 11:57:13 ****** PSpice 17.2.0 (March 2016) ****** ID# 0 ********

 ** Profile: "Advanced_Current_AD-advanced_current_sample"  [ c:\ninfeion_git\bbsolarcontroller\pcb\cadence\schematic\sim\bbcircuit_s


 ****     INITIAL TRANSIENT SOLUTION       TEMPERATURE =   27.000 DEG C

 ****     CURRENT STEP                     PARAM BAT =    0     


******************************************************************************



 NODE   VOLTAGE     NODE   VOLTAGE     NODE   VOLTAGE     NODE   VOLTAGE


