
**** 10/16/16 20:51:05 ****** PSpice 17.2.0 (March 2016) ****** ID# 0 ********

 ** Profile: "Advanced_Current_AD-advanced_current_sample"  [ c:\ninfeion_git\bbsolarcontroller\pcb\cadence\schematic\sim\bbcircuit_s


 ****     CIRCUIT DESCRIPTION


******************************************************************************




** Creating circuit file "advanced_current_sample.cir" 
** WARNING: THIS AUTOMATICALLY GENERATED FILE MAY BE OVERWRITTEN BY SUBSEQUENT SIMULATIONS

*Libraries: 
* Profile Libraries :
* Local Libraries :
.LIB "../../../bbcircuit_simulation-pspicefiles/bbcircuit_simulation.lib" 
* From [PSPICE NETLIST] section of C:\Cadence\SPB_Data\cdssetup\OrCAD_PSpice\17.2.0\PSpice.ini file:
.lib "nom.lib" 

*Analysis directives: 
.TRAN  0 1000ms 0 
.OPTIONS ADVCONV
.PROBE64 V(alias(*)) I(alias(*)) W(alias(*)) D(alias(*)) NOISE(alias(*)) 
.INC "..\Advanced_Current_AD.net" 



**** INCLUDING Advanced_Current_AD.net ****
* source BBCIRCUIT_SIMULATION
R_R1         N00240 N00244  0.01 TC=0,0 
Q_Q1         N00219 N00334 N00244 Q2SA1213/ZTX 
Q_Q3         N00231 N09140 N00334 Q2SA1213/ZTX 
Q_Q4         N00219 N00523 N00397 Q2N1893
Q_Q5         N09140 N00231 N00393 Q2N1893
Q_Q6         N00231 N00231 N00389 Q2N1893
Q_Q8         N00523 N00513 0 Q2N1893
R_R2         N00523 N00240  100k TC=0,0 
R_R4         0 N00389  20k TC=0,0 
R_R5         0 N00393  18k TC=0,0 
R_R6         0 N00397  4.7k TC=0,0 
R_R7         0 N00513  4.7k TC=0,0 
R_load         0 N00244  {LOAD} TC=0,0 
R_R8         0 N00389  1900k TC=0,0 
Q_Q7         N00284 N00523 N00513 Q2N1893
Q_Q2         N00284 N00318 N00240 Q2SA1213/ZTX 
R_R9         N00334 N00318  2k TC=0,0 
V_V4         N09140 N00219 0Vdc
V_V7         N00240 0 0Vdc
R_R10         N11648 N11674  0.01 TC=0,0 
R_load1         0 N11674  {LOAD} TC=0,0 
V_V9         N00284 N00318 0Vdc
R_R13         N15592 N11648  100k TC=0,0 
R_R14         N15615 N11648  100k TC=0,0 
R_R19         0 N15673  470 TC=0,0 
R_R20         0 N15892  470 TC=0,0 
Q_Q14         N16810 N16810 N16698 Q2SA1213/ZTX 
R_R23         VEE_AMP N16806  470k TC=0,0 
R_R24         VEE_AMP N16810  470k TC=0,0 
Q_Q13         N16806 N16806 N16698 Q2SA1213/ZTX 
R_R25         0 N16810  1000k TC=0,0 
Q_Q15         N31628 N15592 N15673 Q2N1893
Q_Q16         N31643 N15615 N15673 Q2N1893
Q_Q17         N15615 N31643 N15892 Q2N1893
Q_Q18         N15592 N31628 N15673 Q2N1893
V_V10         VCC_AMP 0 5Vdc
V_V11         0 VEE_AMP 0Vdc
R_R29         VCC_AMP N16698  47k TC=0,0 
R_R33         N15673 0  25k TC=0,0 
I_I1         0 N11648 DC 0Adc AC 0Aac
+SIN 3 2 50 0 0 0
Q_Q21         N31643 N33651 N36381 Q2SA1213/ZTX 
Q_Q22         N31628 N33651 N36457 Q2SA1213/ZTX 
Q_Q23         N33651 N33651 VCC_AMP Q2SA1213/ZTX 
R_R35         N33651 0  19k TC=0,0 
R_R37         VCC_AMP N36381  4.7k TC=0,0 
R_R40         VCC_AMP N36457  4.7k TC=0,0 
X_U1A         N39284 N39254 VCC_AMP VEE_AMP N39551 LM358
R_R41         N39284 N15673  470 TC=0,0 
R_R42         N39254 N15892  470 TC=0,0 
R_R43         N39551 N39254  47000 TC=0,0 
R_R44         0 N39284  47000 TC=0,0 
.PARAM  load=2 bat=24

**** RESUMING advanced_current_sample.cir ****
.END

**** 10/16/16 20:51:05 ****** PSpice 17.2.0 (March 2016) ****** ID# 0 ********

 ** Profile: "Advanced_Current_AD-advanced_current_sample"  [ c:\ninfeion_git\bbsolarcontroller\pcb\cadence\schematic\sim\bbcircuit_s


 ****     Diode MODEL PARAMETERS


******************************************************************************




               X_U1A.x_lm358.dx 
          IS  800.000000E-18 
          RS    1            


               X_U1A.x_lm358.dy 
          IS  800.000000E-18 
          RS    1.000000E-03 
         CJO   10.000000E-12 


**** 10/16/16 20:51:05 ****** PSpice 17.2.0 (March 2016) ****** ID# 0 ********

 ** Profile: "Advanced_Current_AD-advanced_current_sample"  [ c:\ninfeion_git\bbsolarcontroller\pcb\cadence\schematic\sim\bbcircuit_s


 ****     BJT MODEL PARAMETERS


******************************************************************************




               Q2SA1213/ZTX    Q2N1893         
               PNP             NPN             
       LEVEL    1               1            
          IS  260.000000E-15    2.079000E-15 
          BF  210             167.2          
          NF     .999           1            
         VAF   27             100            
         IKF    7               1.088        
         ISE  120.000000E-15   24.360000E-15 
          NE    1.43            1.357        
          BR   70               1.502        
          NR     .982           1            
         VAR   14                            
         IKR     .6              .3028       
         ISC    1.204000E-12  264.600000E-15 
          NC    1.4474          1.545        
          NK                     .8271       
         ISS    0               0            
          RB     .3                          
          RE     .065           0            
          RC     .04             .9069       
         CJE  410.000000E-12   58.120000E-12 
         VJE     .75             .5          
         MJE                     .441        
         CJC  140.000000E-12   45.290000E-12 
         VJC     .305            .5          
         MJC     .35             .31         
        XCJC    1               1            
         CJS    0               0            
         VJS     .75             .75         
          TF  650.000000E-12  738.100000E-12 
         XTF                   24.93         
         VTF                   10            
         ITF                    2.376        
          TR   12.000000E-09    1.000000E-06 
         XTB                    1.5          
          KF    0               0            
          AF    1               1            
          CN    2.2             2.42         
           D     .52             .87         


               X_U1A.x_lm358.qx 
               PNP             
       LEVEL    1            
          IS  800.000000E-18 
          BF  166.7          
          NF    1            
          BR    1            
          NR    1            
         ISS    0            
          RE    0            
          RC    0            
         CJE    0            
         VJE     .75         
         CJC    0            
         VJC     .75         
         MJC     .33         
        XCJC    1            
         CJS    0            
         VJS     .75         
          KF    0            
          AF    1            
          CN    2.2          
           D     .52         


**** 10/16/16 20:51:05 ****** PSpice 17.2.0 (March 2016) ****** ID# 0 ********

 ** Profile: "Advanced_Current_AD-advanced_current_sample"  [ c:\ninfeion_git\bbsolarcontroller\pcb\cadence\schematic\sim\bbcircuit_s


 ****     Current Controlled Switch MODEL PARAMETERS


******************************************************************************




               X_U1A.x_lm358.sw2 
         RON    1            
        ROFF   10.000000E+06 
         ION    0            
        IOFF   -1.000000E-06 


               X_U1A.x_lm358.sw1 
         RON    1            
        ROFF   10.000000E+06 
         ION   -1.000000E-06 
        IOFF    0            


               X_U1A.x_lm358.sw3 
         RON    1            
        ROFF   10.000000E+06 
         ION   -1.000000E-06 
        IOFF    0            


               X_U1A.x_lm358.sw4 
         RON    1            
        ROFF   10.000000E+06 
         ION    0            
        IOFF   -1.000000E-06 


**** 10/16/16 20:51:05 ****** PSpice 17.2.0 (March 2016) ****** ID# 0 ********

 ** Profile: "Advanced_Current_AD-advanced_current_sample"  [ c:\ninfeion_git\bbsolarcontroller\pcb\cadence\schematic\sim\bbcircuit_s


 ****     INITIAL TRANSIENT SOLUTION       TEMPERATURE =   27.000 DEG C


******************************************************************************



 NODE   VOLTAGE     NODE   VOLTAGE     NODE   VOLTAGE     NODE   VOLTAGE


(N00219) 3.852E-12 (N00231) 2.066E-12 (N00240)    0.0000 (N00244)-563.3E-27     

(N00284)-3.905E-12 (N00318)-3.905E-12 (N00334)-3.905E-12 (N00389) 72.82E-21     

(N00393) 101.0E-21 (N00397) 20.43E-21 (N00513)-17.30E-21 (N00523) 3.379E-18     

(N09140) 3.852E-12 (N11648)    6.0298 (N11674)    5.9998 (N15592)     .6240     

(N15615)     .6240 (N15673)     .0385 (N15892)     .0323 (N16698)    4.0990     

(N16806)    3.6536 (N16810)    3.6437 (N31628)     .6585 (N31643)     .6523     

(N33651)    4.4663 (N36381)    4.9264 (N36457)    4.9264 (N39254)     .0388     

(N39284)     .0382 (N39551)     .6815 (VCC_AMP)    5.0000                       

(VEE_AMP)    0.0000                   (X_U1A.x_lm358.6) 342.6E-06               

(X_U1A.x_lm358.7)     .6822           (X_U1A.x_lm358.8)     .6822               

(X_U1A.x_lm358.9)    0.0000           (X_U1A.x_lm358.a)    5.0000               

(X_U1A.x_lm358.b)-13.68E-06           (X_U1A.x_lm358.10)     .6466              

(X_U1A.x_lm358.11)     .0399          (X_U1A.x_lm358.12)     .0405              

(X_U1A.x_lm358.13)     .6327          (X_U1A.x_lm358.14)     .6325              

(X_U1A.x_lm358.53)    3.5000          (X_U1A.x_lm358.54)     .8220              

(X_U1A.x_lm358.90)     .0137          (X_U1A.x_lm358.91)   40.0000              

(X_U1A.x_lm358.92)  -40.0000          (X_U1A.x_lm358.99)    2.5000          




    VOLTAGE SOURCE CURRENTS
    NAME         CURRENT

    V_V4        -1.006E-22
    V_V7        -9.654E-24
    V_V9        -4.634E-24
    V_V10       -8.652E-04
    V_V11       -5.812E-04
    X_U1A.x_lm358.vb   3.426E-09
    X_U1A.x_lm358.vc   2.819E-12
    X_U1A.x_lm358.ve  -2.330E-13
    X_U1A.x_lm358.vlim   1.368E-05
    X_U1A.x_lm358.vlp  -3.999E-11
    X_U1A.x_lm358.vln  -4.002E-11

    TOTAL POWER DISSIPATION   4.33E-03  WATTS



          JOB CONCLUDED

**** 10/16/16 20:51:05 ****** PSpice 17.2.0 (March 2016) ****** ID# 0 ********

 ** Profile: "Advanced_Current_AD-advanced_current_sample"  [ c:\ninfeion_git\bbsolarcontroller\pcb\cadence\schematic\sim\bbcircuit_s


 ****     JOB STATISTICS SUMMARY


******************************************************************************



  Total job time (using Solver 1)   =         .08
