
**** 10/13/16 18:07:03 ****** PSpice 17.2.0 (March 2016) ****** ID# 0 ********

 ** Profile: "Advanced_Current_AD-advanced_current_sample"  [ c:\ninfeion_git\bbsolarcontroller\pcb\cadence\schematic\sim\bbcircuit_s


 ****     CIRCUIT DESCRIPTION


******************************************************************************




** Creating circuit file "advanced_current_sample.cir" 
** WARNING: THIS AUTOMATICALLY GENERATED FILE MAY BE OVERWRITTEN BY SUBSEQUENT SIMULATIONS

*Libraries: 
* Profile Libraries :
* Local Libraries :
.LIB "../../../bbcircuit_simulation-pspicefiles/bbcircuit_simulation.lib" 
* From [PSPICE NETLIST] section of C:\Cadence\SPB_Data\cdssetup\OrCAD_PSpice\17.2.0\PSpice.ini file:
.lib "nom.lib" 

*Analysis directives: 
.TRAN  0 100us 0 
.STEP LIN PARAM LOAD 1 5 1 
.OPTIONS ADVCONV
.PROBE64 V(alias(*)) I(alias(*)) W(alias(*)) D(alias(*)) NOISE(alias(*)) 
.INC "..\Advanced_Current_AD.net" 



**** INCLUDING Advanced_Current_AD.net ****
* source BBCIRCUIT_SIMULATION
R_R1         N00240 N00244  0.01 TC=0,0 
Q_Q1         N00219 N00330 N00244 Q2SA1213/ZTX 
Q_Q3         N00231 N00219 N00330 Q2SA1213/ZTX 
Q_Q4         N00219 N00523 N00397 Q2N1893
Q_Q5         N00219 N00231 N00393 Q2N1893
Q_Q6         N00231 N00231 N00389 Q2N1893
Q_Q8         N00523 N00487 0 Q2N1893
R_R2         N00523 N00240  100k TC=0,0 
R_R3         N00284 N00330  2k TC=0,0 
R_R4         0 N00389  20k TC=0,0 
R_R5         0 N00393  18k TC=0,0 
R_R6         0 N00397  4.7k TC=0,0 
R_R7         0 N00487  4.7k TC=0,0 
R_load         0 N00244  {LOAD} TC=0,0 
V_V1         N00240 0 {BAT}
R_R8         0 N00389  1900k TC=0,0 
Q_Q7         N00284 N00523 N00487 Q2N1893
Q_Q2         N00284 N00284 N00240 Q2SA1213/ZTX 
.PARAM  load=2 bat=24

**** RESUMING advanced_current_sample.cir ****
.END

**** 10/13/16 18:07:03 ****** PSpice 17.2.0 (March 2016) ****** ID# 0 ********

 ** Profile: "Advanced_Current_AD-advanced_current_sample"  [ c:\ninfeion_git\bbsolarcontroller\pcb\cadence\schematic\sim\bbcircuit_s


 ****     BJT MODEL PARAMETERS


******************************************************************************




               Q2SA1213/ZTX    Q2N1893         
               PNP             NPN             
       LEVEL    1               1            
          IS  260.000000E-15    2.079000E-15 
          BF  210             167.2          
          NF     .999           1            
         VAF   27             100            
         IKF    7               1.088        
         ISE  120.000000E-15   24.360000E-15 
          NE    1.43            1.357        
          BR   70               1.502        
          NR     .982           1            
         VAR   14                            
         IKR     .6              .3028       
         ISC    1.204000E-12  264.600000E-15 
          NC    1.4474          1.545        
          NK                     .8271       
         ISS    0               0            
          RB     .3                          
          RE     .065           0            
          RC     .04             .9069       
         CJE  410.000000E-12   58.120000E-12 
         VJE     .75             .5          
         MJE                     .441        
         CJC  140.000000E-12   45.290000E-12 
         VJC     .305            .5          
         MJC     .35             .31         
        XCJC    1               1            
         CJS    0               0            
         VJS     .75             .75         
          TF  650.000000E-12  738.100000E-12 
         XTF                   24.93         
         VTF                   10            
         ITF                    2.376        
          TR   12.000000E-09    1.000000E-06 
         XTB                    1.5          
          KF    0               0            
          AF    1               1            
          CN    2.2             2.42         
           D     .52             .87         


**** 10/13/16 18:07:03 ****** PSpice 17.2.0 (March 2016) ****** ID# 0 ********

 ** Profile: "Advanced_Current_AD-advanced_current_sample"  [ c:\ninfeion_git\bbsolarcontroller\pcb\cadence\schematic\sim\bbcircuit_s


 ****     INITIAL TRANSIENT SOLUTION       TEMPERATURE =   27.000 DEG C

 ****     CURRENT STEP                     PARAM LOAD =    1     


******************************************************************************



 NODE   VOLTAGE     NODE   VOLTAGE     NODE   VOLTAGE     NODE   VOLTAGE


(N00219)   22.7240 (N00231)    2.9624 (N00240)   24.0000 (N00244)   23.7620     

(N00284)   23.4640 (N00330)   23.2260 (N00389)    2.3227 (N00393)    2.3248     

(N00397)     .6573 (N00487)     .6566 (N00523)    1.2966 




    VOLTAGE SOURCE CURRENTS
    NAME         CURRENT

    V_V1        -2.376E+01

    TOTAL POWER DISSIPATION   5.70E+02  WATTS


**** 10/13/16 18:07:03 ****** PSpice 17.2.0 (March 2016) ****** ID# 0 ********

 ** Profile: "Advanced_Current_AD-advanced_current_sample"  [ c:\ninfeion_git\bbsolarcontroller\pcb\cadence\schematic\sim\bbcircuit_s


 ****     INITIAL TRANSIENT SOLUTION       TEMPERATURE =   27.000 DEG C

 ****     CURRENT STEP                     PARAM LOAD =    2     


******************************************************************************



 NODE   VOLTAGE     NODE   VOLTAGE     NODE   VOLTAGE     NODE   VOLTAGE


(N00219)   22.8680 (N00231)    1.7898 (N00240)   24.0000 (N00244)   23.8810     

(N00284)   23.4700 (N00330)   23.3510 (N00389)    1.1680 (N00393)    1.1703     

(N00397)     .6573 (N00487)     .6566 (N00523)    1.2966 




    VOLTAGE SOURCE CURRENTS
    NAME         CURRENT

    V_V1        -1.194E+01

    TOTAL POWER DISSIPATION   2.87E+02  WATTS


**** 10/13/16 18:07:03 ****** PSpice 17.2.0 (March 2016) ****** ID# 0 ********

 ** Profile: "Advanced_Current_AD-advanced_current_sample"  [ c:\ninfeion_git\bbsolarcontroller\pcb\cadence\schematic\sim\bbcircuit_s


 ****     INITIAL TRANSIENT SOLUTION       TEMPERATURE =   27.000 DEG C

 ****     CURRENT STEP                     PARAM LOAD =    3     


******************************************************************************



 NODE   VOLTAGE     NODE   VOLTAGE     NODE   VOLTAGE     NODE   VOLTAGE


(N00219)   22.9210 (N00231)    1.3922 (N00240)   24.0000 (N00244)   23.9200     

(N00284)   23.4730 (N00330)   23.3940 (N00389)     .7808 (N00393)     .7832     

(N00397)     .6573 (N00487)     .6566 (N00523)    1.2966 




    VOLTAGE SOURCE CURRENTS
    NAME         CURRENT

    V_V1        -7.974E+00

    TOTAL POWER DISSIPATION   1.91E+02  WATTS


**** 10/13/16 18:07:03 ****** PSpice 17.2.0 (March 2016) ****** ID# 0 ********

 ** Profile: "Advanced_Current_AD-advanced_current_sample"  [ c:\ninfeion_git\bbsolarcontroller\pcb\cadence\schematic\sim\bbcircuit_s


 ****     INITIAL TRANSIENT SOLUTION       TEMPERATURE =   27.000 DEG C

 ****     CURRENT STEP                     PARAM LOAD =    4     


******************************************************************************



 NODE   VOLTAGE     NODE   VOLTAGE     NODE   VOLTAGE     NODE   VOLTAGE


(N00219)   22.9500 (N00231)    1.1909 (N00240)   24.0000 (N00244)   23.9400     

(N00284)   23.4750 (N00330)   23.4150 (N00389)     .5869 (N00393)     .5893     

(N00397)     .6573 (N00487)     .6566 (N00523)    1.2966 




    VOLTAGE SOURCE CURRENTS
    NAME         CURRENT

    V_V1        -5.986E+00

    TOTAL POWER DISSIPATION   1.44E+02  WATTS


**** 10/13/16 18:07:03 ****** PSpice 17.2.0 (March 2016) ****** ID# 0 ********

 ** Profile: "Advanced_Current_AD-advanced_current_sample"  [ c:\ninfeion_git\bbsolarcontroller\pcb\cadence\schematic\sim\bbcircuit_s


 ****     INITIAL TRANSIENT SOLUTION       TEMPERATURE =   27.000 DEG C

 ****     CURRENT STEP                     PARAM LOAD =    5     


******************************************************************************



 NODE   VOLTAGE     NODE   VOLTAGE     NODE   VOLTAGE     NODE   VOLTAGE


(N00219)   22.9690 (N00231)    1.0687 (N00240)   24.0000 (N00244)   23.9520     

(N00284)   23.4750 (N00330)   23.4280 (N00389)     .4705 (N00393)     .4729     

(N00397)     .6573 (N00487)     .6566 (N00523)    1.2966 




    VOLTAGE SOURCE CURRENTS
    NAME         CURRENT

    V_V1        -4.791E+00

    TOTAL POWER DISSIPATION   1.15E+02  WATTS



          JOB CONCLUDED

**** 10/13/16 18:07:03 ****** PSpice 17.2.0 (March 2016) ****** ID# 0 ********

 ** Profile: "Advanced_Current_AD-advanced_current_sample"  [ c:\ninfeion_git\bbsolarcontroller\pcb\cadence\schematic\sim\bbcircuit_s


 ****     JOB STATISTICS SUMMARY

 ****     CURRENT STEP                     PARAM LOAD =    5     


******************************************************************************



  Total job time (using Solver 1)   =         .11
