
**** 09/20/16 23:00:47 ***** PSpice 16.6.0 (October 2012) ***** ID# 0 ********

 ** Profile: "inverted_amp_sample-inverted_amp_sample"  [ c:\ninfeion_git\bbsolarcontroller\pcb\cadence\schematic\sim\demo_3\bb_buck-


 ****     CIRCUIT DESCRIPTION


******************************************************************************




** Creating circuit file "inverted_amp_sample.cir" 
** WARNING: THIS AUTOMATICALLY GENERATED FILE MAY BE OVERWRITTEN BY SUBSEQUENT SIMULATIONS

*Libraries: 
* Profile Libraries :
* Local Libraries :
* From [PSPICE NETLIST] section of C:\Users\N\AppData\Roaming\SPB_Data\cdssetup\OrCAD_PSpice/16.6.0/PSpice.ini file:
.lib "nom.lib" 

*Analysis directives: 
.TRAN  0 100000us 0 100us 
.STEP LIN PARAM DUTY 3us 3us 1us 
.OPTIONS ADVCONV
.PROBE64 V(alias(*)) I(alias(*)) W(alias(*)) D(alias(*)) NOISE(alias(*)) 
.INC "..\inverted_amp_sample.net" 



**** INCLUDING inverted_amp_sample.net ****
* source BB_BUCK
V_V4         VCC 0 15Vdc
V_V3         0 VEE 15Vdc
R_R1         0 N03441  50 TC=0,0 
V_V2         N03407 N03423  
+PULSE 0 5 0 0.01us 0.01us {DUTY} 10us
V_V1         N03413 0 70Vdc
R_R2         N03441 OUT  0.1 TC=0,0 
D_D1         0 N03423 D1N5818 
L_L1         N03423 OUT  0.5mH  
M_M1         N03413 N03407 N03423 N03423 IRF150
C_C1         0 OUT  470uF  TC=0,0 
.PARAM  r1=100k duty=1us

**** RESUMING inverted_amp_sample.cir ****
.END

**** 09/20/16 23:00:47 ***** PSpice 16.6.0 (October 2012) ***** ID# 0 ********

 ** Profile: "inverted_amp_sample-inverted_amp_sample"  [ c:\ninfeion_git\bbsolarcontroller\pcb\cadence\schematic\sim\demo_3\bb_buck-


 ****     Diode MODEL PARAMETERS


******************************************************************************




               D1N5818         
          IS    2.835000E-06 
         ISR   26.460000E-06 
         IKF     .3227       
          RS     .04712      
         CJO  359.300000E-12 
          VJ     .75         
           M     .6513       
         XTI    0            


**** 09/20/16 23:00:47 ***** PSpice 16.6.0 (October 2012) ***** ID# 0 ********

 ** Profile: "inverted_amp_sample-inverted_amp_sample"  [ c:\ninfeion_git\bbsolarcontroller\pcb\cadence\schematic\sim\demo_3\bb_buck-


 ****     MOSFET MODEL PARAMETERS


******************************************************************************




               IRF150          
               NMOS            
       LEVEL    3            
           L    2.000000E-06 
           W     .3          
         VTO    2.831        
          KP   20.530000E-06 
       GAMMA    0            
         PHI     .6          
      LAMBDA    0            
          RD    1.031000E-03 
          RS    1.624000E-03 
          RG   13.89         
         RDS  444.400000E+03 
          IS  194.000000E-18 
          JS    0            
          PB     .8          
        PBSW     .8          
         CBD    3.229000E-09 
          CJ    0            
        CJSW    0            
          TT  288.000000E-09 
        CGSO    9.027000E-09 
        CGDO    1.679000E-09 
        CGBO    0            
         TOX  100.000000E-09 
          XJ    0            
       UCRIT   10.000000E+03 
       DELTA    0            
         ETA    0            
      DIOMOD    1            
         VFB    0            
        LETA    0            
        WETA    0            
          U0    0            
        TEMP    0            
         VDD    5            
       XPART    0            


**** 09/20/16 23:00:47 ***** PSpice 16.6.0 (October 2012) ***** ID# 0 ********

 ** Profile: "inverted_amp_sample-inverted_amp_sample"  [ c:\ninfeion_git\bbsolarcontroller\pcb\cadence\schematic\sim\demo_3\bb_buck-


 ****     INITIAL TRANSIENT SOLUTION       TEMPERATURE =   27.000 DEG C

 ****     CURRENT STEP                     PARAM DUTY =    3.0000E-06


******************************************************************************



 NODE   VOLTAGE     NODE   VOLTAGE     NODE   VOLTAGE     NODE   VOLTAGE


(  OUT)     .0077  (  VCC)   15.0000  (  VEE)  -15.0000  (N03407)     .0077     

(N03413)   70.0000 (N03423)     .0077 (N03441)     .0077 




    VOLTAGE SOURCE CURRENTS
    NAME         CURRENT

    V_V4         0.000E+00
    V_V3         0.000E+00
    V_V2         8.882E-16
    V_V1        -1.575E-04

    TOTAL POWER DISSIPATION   1.10E-02  WATTS



          JOB CONCLUDED

**** 09/20/16 23:00:47 ***** PSpice 16.6.0 (October 2012) ***** ID# 0 ********

 ** Profile: "inverted_amp_sample-inverted_amp_sample"  [ c:\ninfeion_git\bbsolarcontroller\pcb\cadence\schematic\sim\demo_3\bb_buck-


 ****     JOB STATISTICS SUMMARY

 ****     CURRENT STEP                     PARAM DUTY =    3.0000E-06


******************************************************************************



  Total job time (using Solver 1)   =       14.56
