
**** 09/18/16 20:20:12 ***** PSpice 16.6.0 (October 2012) ***** ID# 0 ********

 ** Profile: "Bidirectional dc-dc-bidirectional dc-dc mix analysis"  [ c:\ninfeion_git\bbsolarcontroller\pcb\cadence\schematic\sim\bb


 ****     CIRCUIT DESCRIPTION


******************************************************************************




** Creating circuit file "bidirectional dc-dc mix analysis.cir" 
** WARNING: THIS AUTOMATICALLY GENERATED FILE MAY BE OVERWRITTEN BY SUBSEQUENT SIMULATIONS

*Libraries: 
* Profile Libraries :
* Local Libraries :
* From [PSPICE NETLIST] section of C:\Users\N\AppData\Roaming\SPB_Data\cdssetup\OrCAD_PSpice/16.6.0/PSpice.ini file:
.lib "nom.lib" 

*Analysis directives: 
.TRAN  0 100ms 0 1ms 
.OPTIONS ADVCONV
.PROBE64 V(alias(*)) I(alias(*)) W(alias(*)) D(alias(*)) NOISE(alias(*)) 
.INC "..\Bidirectional dc-dc.net" 



**** INCLUDING "Bidirectional dc-dc.net" ****
* source BBCIRCUIT_SIMULATION
M_M1         N74928 N759731 N74964 N74964 IRF150
M_M2         N74964 N760501 0 0 IRF150
M_M3         N75020 N761271 N74984 N74984 IRF150
M_M4         N74984 N761681 0 0 IRF150
D_D1         N75152 N74928 MBR1045 
C_C1         0 N75232  2000u  TC=0,0 
R_R1         N75064 N75152  0.1 TC=0,0 
R_R2         N75156 N75232  0.1 TC=0,0 
R_R3         N75020 N75648  0.1 TC=0,0 
R_R4         0 N75648  50 TC=0,0 
L_L1         N75232 N74964  5mH  
V_V1         N759731 N74964  
+PULSE 0 5 {PHASE1} 0.01us 0.01us {DUTY1} 10us
V_V2         N760501 0  
+PULSE 5 0 {PHASE2} 0.01us 0.01us {DUTY2} 10us
V_V3         N761271 N74984  
+PULSE 0 5 {PHASE3} 0.01us 0.01us {DUTY3} 10us
V_V4         N761681 0  
+PULSE 5 0 {PHASE4} 0.01us 0.01us {DUTY4} 10us
V_V5         N75064 0 {SOLAR}
V_V6         N75156 0 {BATTERY}
L_L3         N80643 N74940  5mH  
L_L4         N74984 N75000  50mH  
Kn_K1         L_L3 L_L4     1
C_C7         N74928 N74940  2000u  
C_C8         N74940 0  2000u  
C_C13         N75020 N75000  2000u  
C_C14         N75000 0  2000u  
C_C15         N75020 0  2000u  
L_L5         N74964 N80643  5mH  
D_D2         N74964 N74928 MBR1045 
D_D3         0 N74964 MBR1045 
C_C16         N74928 N74940  2000u  
C_C17         N74940 0  2000u  
.PARAM  phase_diff=1us dead_area=0.1us phase1=0.2us phase2=0 phase3=1.2us
+  duty1=8us solar=17 battery=12 duty2=8.4us phase4=1us duty3=8us duty4=8.4us

**** RESUMING "bidirectional dc-dc mix analysis.cir" ****
.END

**** 09/18/16 20:20:12 ***** PSpice 16.6.0 (October 2012) ***** ID# 0 ********

 ** Profile: "Bidirectional dc-dc-bidirectional dc-dc mix analysis"  [ c:\ninfeion_git\bbsolarcontroller\pcb\cadence\schematic\sim\bb


 ****     Diode MODEL PARAMETERS


******************************************************************************




               MBR1045         
          IS  168.400000E-09 
         ISR   10.370000E-06 
         IKF    1.121        
          RS    8.013000E-03 
         CJO  888.900000E-12 
          VJ     .75         
           M     .4639       
         XTI    0            


**** 09/18/16 20:20:12 ***** PSpice 16.6.0 (October 2012) ***** ID# 0 ********

 ** Profile: "Bidirectional dc-dc-bidirectional dc-dc mix analysis"  [ c:\ninfeion_git\bbsolarcontroller\pcb\cadence\schematic\sim\bb


 ****     MOSFET MODEL PARAMETERS


******************************************************************************




               IRF150          
               NMOS            
       LEVEL    3            
           L    2.000000E-06 
           W     .3          
         VTO    2.831        
          KP   20.530000E-06 
       GAMMA    0            
         PHI     .6          
      LAMBDA    0            
          RD    1.031000E-03 
          RS    1.624000E-03 
          RG   13.89         
         RDS  444.400000E+03 
          IS  194.000000E-18 
          JS    0            
          PB     .8          
        PBSW     .8          
         CBD    3.229000E-09 
          CJ    0            
        CJSW    0            
          TT  288.000000E-09 
        CGSO    9.027000E-09 
        CGDO    1.679000E-09 
        CGBO    0            
         TOX  100.000000E-09 
          XJ    0            
       UCRIT   10.000000E+03 
       DELTA    0            
         ETA    0            
      DIOMOD    1            
         VFB    0            
        LETA    0            
        WETA    0            
          U0    0            
        TEMP    0            
         VDD    5            
       XPART    0            


**** 09/18/16 20:20:12 ***** PSpice 16.6.0 (October 2012) ***** ID# 0 ********

 ** Profile: "Bidirectional dc-dc-bidirectional dc-dc mix analysis"  [ c:\ninfeion_git\bbsolarcontroller\pcb\cadence\schematic\sim\bb


 ****     INITIAL TRANSIENT SOLUTION       TEMPERATURE =   27.000 DEG C


******************************************************************************



 NODE   VOLTAGE     NODE   VOLTAGE     NODE   VOLTAGE     NODE   VOLTAGE


(N74928)   16.9190 (N74940)   11.2830 (N74964)   11.2830 (N74984)-5.730E-30     

(N75000)-5.730E-30 (N75020)    0.0000 (N75064)   17.0000 (N75152)   17.0000     

(N75156)   12.0000 (N75232)   11.2830 (N75648)    0.0000 (N80643)   11.2830     

(N759731)   11.2830                   (N760501)    5.0000                       

(N761271)-5.730E-30                   (N761681)    5.0000                   




    VOLTAGE SOURCE CURRENTS
    NAME         CURRENT

    V_V1         9.095E-13
    V_V2         0.000E+00
    V_V3         0.000E+00
    V_V4         0.000E+00
    V_V5        -4.086E-05
    V_V6        -7.166E+00

    TOTAL POWER DISSIPATION   8.60E+01  WATTS



          JOB CONCLUDED

**** 09/18/16 20:20:12 ***** PSpice 16.6.0 (October 2012) ***** ID# 0 ********

 ** Profile: "Bidirectional dc-dc-bidirectional dc-dc mix analysis"  [ c:\ninfeion_git\bbsolarcontroller\pcb\cadence\schematic\sim\bb


 ****     JOB STATISTICS SUMMARY


******************************************************************************



  Total job time (using Solver 1)   =      271.11
